
T45A8 000:301 SEGGER J-Link V4.96d Log File (0002ms, 0264ms total)
T45A8 000:301 DLL Compiled: Jan 29 2015 11:45:37 (0002ms, 0264ms total)
T45A8 000:301 Logging started @ 2018-12-13 15:17 (0002ms, 0264ms total)
T45A8 000:303 JLINK_SetWarnOutHandler(...) (0000ms, 0264ms total)
T45A8 000:303 JLINK_OpenEx(...)
Firmware: J-Link ARM-OB STM32 compiled Aug 22 2012 19:52:04
Hardware: V7.00
S/N: 20170705
Feature(s): RDI,FlashDL,FlashBP,JFlash,GDBFull  returns O.K. (0265ms, 0529ms total)
T45A8 000:568 JLINK_SetErrorOutHandler(...) (0000ms, 0529ms total)
T45A8 000:568 JLINK_ExecCommand("ProjectFile = "C:\Users\12738\Desktop\STM32cubeMX\freemodbusForstm32f429\freemodbusForstm32f429\modbus\MDK-ARM\JLinkSettings.ini"", ...)Device "UNSPECIFIED" selected.  returns 0x00 (0012ms, 0541ms total)
T45A8 000:588 JLINK_ExecCommand("Device = STM32F429IGTx", ...)Device "UNSPECIFIED" selected.  returns 0x00 (0004ms, 0545ms total)
T45A8 000:592 JLINK_ExecCommand("DisableConnectionTimeout", ...)  returns 0x01 (0000ms, 0545ms total)
T45A8 000:592 JLINK_GetHardwareVersion()  returns 0x11170 (0000ms, 0545ms total)
T45A8 000:592 JLINK_GetDLLVersion()  returns 49604 (0000ms, 0545ms total)
T45A8 000:592 JLINK_GetFirmwareString(...) (0000ms, 0545ms total)
T45A8 000:602 JLINK_GetDLLVersion()  returns 49604 (0000ms, 0545ms total)
T45A8 000:602 JLINK_GetCompileDateTime() (0000ms, 0545ms total)
T45A8 000:604 JLINK_GetFirmwareString(...) (0000ms, 0545ms total)
T45A8 000:606 JLINK_GetHardwareVersion()  returns 0x11170 (0000ms, 0545ms total)
T45A8 000:614 JLINK_TIF_Select(JLINKARM_TIF_SWD)  returns 0x00 (0001ms, 0546ms total)
T45A8 000:615 JLINK_SetSpeed(20000) (0000ms, 0546ms total)
T45A8 000:615 JLINK_GetId() >0x108 TIF>Found SWD-DP with ID 0x2BA01477 >0x0D TIF> >0x21 TIF> >0x0D TIF> >0x28 TIF> >0x0D TIF> >0x28 TIF> >0x0D TIF> >0x21 TIF> >0x0D TIF> >0x28 TIF> >0x0D TIF> >0x21 TIF> >0x0D TIF> >0x21 TIF> >0x0D TIF> >0x21 TIF> >0x0D TIF> >0x21 TIF> >0x0D TIF> >0x28 TIF> >0x0D TIF> >0x28 TIF> >0x0D TIF> >0x21 TIF> >0x0D TIF> >0x28 TIF> >0x0D TIF> >0x28 TIF> >0x0D TIF> >0x28 TIF> >0x0D TIF> >0x21 TIF> >0x0D TIF> >0x21 TIF> >0x0D TIF> >0x28 TIF> >0x0D TIF> >0x21 TIF> >0x0D TIF>
 >0x21 TIF>Found Cortex-M4 r0p1, Little endian. -- CPU_WriteMem(4 bytes @ 0xE0002000) -- CPU_ReadMem(4 bytes @ 0xE000EDF0) -- CPU_ReadMem(4 bytes @ 0xE0002000)FPUnit: 6 code (BP) slots and 2 literal slots -- CPU_ReadMem(4 bytes @ 0xE000EDFC) -- CPU_ReadMem(4 bytes @ 0xE0001000) -- CPU_WriteMem(4 bytes @ 0xE0001000) -- CPU_ReadMem(4 bytes @ 0xE000ED88) -- CPU_WriteMem(4 bytes @ 0xE000ED88) -- CPU_ReadMem(4 bytes @ 0xE000ED88) -- CPU_WriteMem(4 bytes @ 0xE000ED88) -- CPU_ReadMem(4 bytes @ 0xE00FF010)
TPIU fitted. -- CPU_ReadMem(4 bytes @ 0xE00FF014)ETM fitted. -- CPU_ReadMem(4 bytes @ 0xE00FF018) >0x0D TIF> >0x21 TIF>  returns 0x2BA01477 (0034ms, 0580ms total)
T45A8 000:649 JLINK_GetDLLVersion()  returns 49604 (0000ms, 0580ms total)
T45A8 000:649 JLINK_CORE_GetFound()  returns 0xE0000FF (0000ms, 0580ms total)
T45A8 000:649 JLINK_GetDebugInfo(0x100) -- Value=0xE00FF003  returns 0x00 (0000ms, 0580ms total)
T45A8 000:651 JLINK_ReadMem (0xE00FF000, 0x0020 Bytes, ...) -- CPU is running -- CPU_ReadMem(32 bytes @ 0xE00FF000) - Data: 03 F0 F0 FF 03 20 F0 FF 03 30 F0 FF 03 10 F0 FF ...  returns 0x00 (0001ms, 0581ms total)
T45A8 000:652 JLINK_ReadMem (0xE000EFF0, 0x0010 Bytes, ...) -- CPU is running -- CPU_ReadMem(16 bytes @ 0xE000EFF0) - Data: 0D 00 00 00 E0 00 00 00 05 00 00 00 B1 00 00 00  returns 0x00 (0001ms, 0582ms total)
T45A8 000:653 JLINK_ReadMem (0xE000EFD0, 0x0020 Bytes, ...) -- CPU is running -- CPU_ReadMem(32 bytes @ 0xE000EFD0) - Data: 04 00 00 00 00 00 00 00 00 00 00 00 00 00 00 00 ...  returns 0x00 (0001ms, 0583ms total)
T45A8 000:654 JLINK_ReadMem (0xE0001FF0, 0x0010 Bytes, ...) -- CPU is running -- CPU_ReadMem(16 bytes @ 0xE0001FF0) - Data: 0D 00 00 00 E0 00 00 00 05 00 00 00 B1 00 00 00  returns 0x00 (0000ms, 0583ms total)
T45A8 000:654 JLINK_ReadMem (0xE0001FD0, 0x0020 Bytes, ...) -- CPU is running -- CPU_ReadMem(32 bytes @ 0xE0001FD0) - Data: 04 00 00 00 00 00 00 00 00 00 00 00 00 00 00 00 ...  returns 0x00 (0002ms, 0585ms total)
T45A8 000:656 JLINK_ReadMem (0xE0002FF0, 0x0010 Bytes, ...) -- CPU is running -- CPU_ReadMem(16 bytes @ 0xE0002FF0) - Data: 0D 00 00 00 E0 00 00 00 05 00 00 00 B1 00 00 00  returns 0x00 (0001ms, 0586ms total)
T45A8 000:657 JLINK_ReadMem (0xE0002FD0, 0x0020 Bytes, ...) -- CPU is running -- CPU_ReadMem(32 bytes @ 0xE0002FD0) - Data: 04 00 00 00 00 00 00 00 00 00 00 00 00 00 00 00 ...  returns 0x00 (0001ms, 0587ms total)
T45A8 000:658 JLINK_ReadMem (0xE0000FF0, 0x0010 Bytes, ...) -- CPU is running -- CPU_ReadMem(16 bytes @ 0xE0000FF0) - Data: 0D 00 00 00 E0 00 00 00 05 00 00 00 B1 00 00 00  returns 0x00 (0000ms, 0587ms total)
T45A8 000:658 JLINK_ReadMem (0xE0000FD0, 0x0020 Bytes, ...) -- CPU is running -- CPU_ReadMem(32 bytes @ 0xE0000FD0) - Data: 04 00 00 00 00 00 00 00 00 00 00 00 00 00 00 00 ...  returns 0x00 (0001ms, 0588ms total)
T45A8 000:659 JLINK_ReadMem (0xE0040FF0, 0x0010 Bytes, ...) -- CPU is running -- CPU_ReadMem(16 bytes @ 0xE0040FF0) - Data: 0D 00 00 00 90 00 00 00 05 00 00 00 B1 00 00 00  returns 0x00 (0001ms, 0589ms total)
T45A8 000:660 JLINK_ReadMem (0xE0040FD0, 0x0020 Bytes, ...) -- CPU is running -- CPU_ReadMem(32 bytes @ 0xE0040FD0) - Data: 04 00 00 00 00 00 00 00 00 00 00 00 00 00 00 00 ...  returns 0x00 (0001ms, 0590ms total)
T45A8 000:661 JLINK_ReadMem (0xE0041FF0, 0x0010 Bytes, ...) -- CPU is running -- CPU_ReadMem(16 bytes @ 0xE0041FF0) - Data: 0D 00 00 00 90 00 00 00 05 00 00 00 B1 00 00 00  returns 0x00 (0001ms, 0591ms total)
T45A8 000:662 JLINK_ReadMem (0xE0041FD0, 0x0020 Bytes, ...) -- CPU is running -- CPU_ReadMem(32 bytes @ 0xE0041FD0) - Data: 04 00 00 00 00 00 00 00 00 00 00 00 00 00 00 00 ...  returns 0x00 (0001ms, 0592ms total)
T45A8 000:663 JLINK_ReadMemU32(0xE000EF40, 0x0001 Items, ...) -- CPU is running -- CPU_ReadMem(4 bytes @ 0xE000EF40) - Data: 21 00 11 10  returns 0x01 (0001ms, 0593ms total)
T45A8 000:664 JLINK_ReadMemU32(0xE000EF44, 0x0001 Items, ...) -- CPU is running -- CPU_ReadMem(4 bytes @ 0xE000EF44) - Data: 11 00 00 11  returns 0x01 (0001ms, 0594ms total)
T45A8 000:665 JLINK_ReadMemU32(0xE000ED00, 0x0001 Items, ...) -- CPU is running -- CPU_ReadMem(4 bytes @ 0xE000ED00) - Data: 41 C2 0F 41  returns 0x01 (0000ms, 0594ms total)
T45A8 000:665 JLINK_SetResetType(JLINKARM_RESET_TYPE_NORMAL)  returns JLINKARM_RESET_TYPE_NORMAL (0000ms, 0594ms total)
T45A8 000:665 JLINK_Reset() -- CPU is running -- CPU_WriteMem(4 bytes @ 0xE000EDF0) -- CPU is running -- CPU_WriteMem(4 bytes @ 0xE000EDFC) >0x35 TIF> -- CPU is running -- CPU_WriteMem(4 bytes @ 0xE000ED0C) -- CPU is running -- CPU_ReadMem(4 bytes @ 0xE000EDF0) -- CPU is running -- CPU_ReadMem(4 bytes @ 0xE000EDF0) -- CPU is running -- CPU_WriteMem(4 bytes @ 0xE000EDF0) -- CPU is running -- CPU_WriteMem(4 bytes @ 0xE000EDFC) -- CPU is running -- CPU_ReadMem(4 bytes @ 0xE000EDF0)
 -- CPU_WriteMem(4 bytes @ 0xE0002000) -- CPU_ReadMem(4 bytes @ 0xE000EDFC) -- CPU_ReadMem(4 bytes @ 0xE0001000) (0021ms, 0615ms total)
T45A8 000:686 JLINK_Halt()  returns 0x00 (0000ms, 0615ms total)
T45A8 000:686 JLINK_IsHalted()  returns TRUE (0000ms, 0615ms total)
T45A8 000:686 JLINK_ReadMemU32(0xE000EDF0, 0x0001 Items, ...) -- CPU_ReadMem(4 bytes @ 0xE000EDF0) - Data: 03 00 03 00  returns 0x01 (0000ms, 0615ms total)
T45A8 000:686 JLINK_WriteU32(0xE000EDF0, 0xA05F0003) -- CPU_WriteMem(4 bytes @ 0xE000EDF0)  returns 0x00 (0001ms, 0616ms total)
T45A8 000:687 JLINK_WriteU32(0xE000EDFC, 0x01000000) -- CPU_WriteMem(4 bytes @ 0xE000EDFC)  returns 0x00 (0001ms, 0617ms total)
T45A8 000:697 JLINK_GetHWStatus(...)  returns 0x00 (0000ms, 0617ms total)
T45A8 000:702 JLINK_GetNumBPUnits(Type = 0xFFFFFF00)  returns 0x06 (0000ms, 0617ms total)
T45A8 000:703 JLINK_GetNumBPUnits(Type = 0xF0)  returns 0x2000 (0000ms, 0618ms total)
T45A8 000:703 JLINK_GetNumWPUnits()  returns 0x04 (0000ms, 0618ms total)
T45A8 000:708 JLINK_GetSpeed()  returns 0xFA0 (0000ms, 0618ms total)
T45A8 000:711 JLINK_ReadMemU32(0xE000E004, 0x0001 Items, ...) -- CPU_ReadMem(4 bytes @ 0xE000E004) - Data: 02 00 00 00  returns 0x01 (0001ms, 0619ms total)
T45A8 000:712 JLINK_ReadMemU32(0xE000E004, 0x0001 Items, ...) -- CPU_ReadMem(4 bytes @ 0xE000E004) - Data: 02 00 00 00  returns 0x01 (0000ms, 0619ms total)
T45A8 000:712 JLINK_WriteMem(0xE0001000, 0x001C Bytes, ...) - Data: 01 00 00 00 00 00 00 00 00 00 00 00 00 00 00 00 ... -- CPU_WriteMem(28 bytes @ 0xE0001000)  returns 0x1C (0002ms, 0621ms total)
T45A8 000:714 JLINK_ReadMem (0xE0001000, 0x001C Bytes, ...) -- CPU_ReadMem(28 bytes @ 0xE0001000) - Data: 01 00 00 40 00 00 00 00 00 00 00 00 00 00 00 00 ...  returns 0x00 (0001ms, 0622ms total)
T45A8 000:715 JLINK_Halt()  returns 0x00 (0000ms, 0622ms total)
T45A8 000:715 JLINK_IsHalted()  returns TRUE (0000ms, 0622ms total)
T45A8 000:721 JLINK_WriteMem(0x20000000, 0x0180 Bytes, ...) - Data: 00 BE 0A E0 0D 78 2D 06 68 40 08 24 40 00 00 D3 ... -- CPU_WriteMem(384 bytes @ 0x20000000)  returns 0x180 (0005ms, 0627ms total)
T45A8 000:727 JLINK_WriteReg(R0, 0x08000000)  returns 0x00 (0000ms, 0627ms total)
T45A8 000:727 JLINK_WriteReg(R1, 0x0ABA9500)  returns 0x00 (0000ms, 0627ms total)
T45A8 000:727 JLINK_WriteReg(R2, 0x00000001)  returns 0x00 (0000ms, 0627ms total)
T45A8 000:727 JLINK_WriteReg(R3, 0x00000000)  returns 0x00 (0000ms, 0627ms total)
T45A8 000:727 JLINK_WriteReg(R4, 0x00000000)  returns 0x00 (0000ms, 0627ms total)
T45A8 000:727 JLINK_WriteReg(R5, 0x00000000)  returns 0x00 (0000ms, 0627ms total)
T45A8 000:727 JLINK_WriteReg(R6, 0x00000000)  returns 0x00 (0000ms, 0627ms total)
T45A8 000:727 JLINK_WriteReg(R7, 0x00000000)  returns 0x00 (0000ms, 0627ms total)
T45A8 000:727 JLINK_WriteReg(R8, 0x00000000)  returns 0x00 (0000ms, 0627ms total)
T45A8 000:727 JLINK_WriteReg(R9, 0x2000017C)  returns 0x00 (0000ms, 0627ms total)
T45A8 000:727 JLINK_WriteReg(R10, 0x00000000)  returns 0x00 (0000ms, 0627ms total)
T45A8 000:727 JLINK_WriteReg(R11, 0x00000000)  returns 0x00 (0001ms, 0628ms total)
T45A8 000:728 JLINK_WriteReg(R12, 0x00000000)  returns 0x00 (0000ms, 0628ms total)
T45A8 000:728 JLINK_WriteReg(R13 (SP), 0x20001000)  returns 0x00 (0000ms, 0628ms total)
T45A8 000:728 JLINK_WriteReg(R14, 0x20000001)  returns 0x00 (0000ms, 0628ms total)
T45A8 000:728 JLINK_WriteReg(R15 (PC), 0x20000054)  returns 0x00 (0000ms, 0628ms total)
T45A8 000:728 JLINK_WriteReg(XPSR, 0x01000000)  returns 0x00 (0000ms, 0628ms total)
T45A8 000:728 JLINK_WriteReg(MSP, 0x20001000)  returns 0x00 (0000ms, 0628ms total)
T45A8 000:728 JLINK_WriteReg(PSP, 0x20001000)  returns 0x00 (0000ms, 0628ms total)
T45A8 000:728 JLINK_WriteReg(CFBP, 0x00000000)  returns 0x00 (0000ms, 0628ms total)
T45A8 000:728 JLINK_SetBPEx(Addr = 0x20000000, Type = 0xFFFFFFF2) -- CPU_ReadMem(4 bytes @ 0x20000000) -- CPU_WriteMem(4 bytes @ 0x20000000) -- CPU_ReadMem(4 bytes @ 0x20000000) -- CPU_WriteMem(4 bytes @ 0x20000000) -- CPU_ReadMem(2 bytes @ 0x20000000)  returns 0x00000001 (0003ms, 0631ms total)
T45A8 000:731 JLINK_Go() -- CPU_WriteMem(2 bytes @ 0x20000000) -- CPU_WriteMem(4 bytes @ 0xE0002008) -- CPU_WriteMem(4 bytes @ 0xE000200C) -- CPU_WriteMem(4 bytes @ 0xE0002010) -- CPU_WriteMem(4 bytes @ 0xE0002014) -- CPU_WriteMem(4 bytes @ 0xE0002018) -- CPU_WriteMem(4 bytes @ 0xE000201C) -- CPU_WriteMem(4 bytes @ 0xE0001004) (0006ms, 0637ms total)
T45A8 000:737 JLINK_IsHalted() -- CPU_ReadMem(2 bytes @ 0x20000000)  returns TRUE (0004ms, 0641ms total)
T45A8 000:741 JLINK_ReadReg(R15 (PC))  returns 0x20000000 (0000ms, 0637ms total)
T45A8 000:741 JLINK_ClrBPEx(BPHandle = 0x00000001)  returns 0x00 (0000ms, 0637ms total)
T45A8 000:741 JLINK_ReadReg(R0)  returns 0x00000000 (0000ms, 0637ms total)
T45A8 000:742 JLINK_WriteReg(R0, 0x08000000)  returns 0x00 (0000ms, 0637ms total)
T45A8 000:742 JLINK_WriteReg(R1, 0x00004000)  returns 0x00 (0000ms, 0637ms total)
T45A8 000:742 JLINK_WriteReg(R2, 0x000000FF)  returns 0x00 (0000ms, 0637ms total)
T45A8 000:742 JLINK_WriteReg(R3, 0x00000000)  returns 0x00 (0000ms, 0637ms total)
T45A8 000:742 JLINK_WriteReg(R4, 0x00000000)  returns 0x00 (0000ms, 0637ms total)
T45A8 000:742 JLINK_WriteReg(R5, 0x00000000)  returns 0x00 (0000ms, 0637ms total)
T45A8 000:742 JLINK_WriteReg(R6, 0x00000000)  returns 0x00 (0000ms, 0637ms total)
T45A8 000:742 JLINK_WriteReg(R7, 0x00000000)  returns 0x00 (0000ms, 0637ms total)
T45A8 000:742 JLINK_WriteReg(R8, 0x00000000)  returns 0x00 (0000ms, 0637ms total)
T45A8 000:742 JLINK_WriteReg(R9, 0x2000017C)  returns 0x00 (0000ms, 0637ms total)
T45A8 000:742 JLINK_WriteReg(R10, 0x00000000)  returns 0x00 (0000ms, 0637ms total)
T45A8 000:742 JLINK_WriteReg(R11, 0x00000000)  returns 0x00 (0000ms, 0637ms total)
T45A8 000:742 JLINK_WriteReg(R12, 0x00000000)  returns 0x00 (0000ms, 0637ms total)
T45A8 000:742 JLINK_WriteReg(R13 (SP), 0x20001000)  returns 0x00 (0001ms, 0638ms total)
T45A8 000:743 JLINK_WriteReg(R14, 0x20000001)  returns 0x00 (0000ms, 0638ms total)
T45A8 000:743 JLINK_WriteReg(R15 (PC), 0x20000020)  returns 0x00 (0000ms, 0638ms total)
T45A8 000:743 JLINK_WriteReg(XPSR, 0x01000000)  returns 0x00 (0000ms, 0638ms total)
T45A8 000:743 JLINK_WriteReg(MSP, 0x20001000)  returns 0x00 (0000ms, 0638ms total)
T45A8 000:743 JLINK_WriteReg(PSP, 0x20001000)  returns 0x00 (0000ms, 0638ms total)
T45A8 000:743 JLINK_WriteReg(CFBP, 0x00000000)  returns 0x00 (0000ms, 0638ms total)
T45A8 000:743 JLINK_SetBPEx(Addr = 0x20000000, Type = 0xFFFFFFF2)  returns 0x00000002 (0000ms, 0638ms total)
T45A8 000:743 JLINK_Go() (0002ms, 0640ms total)
T45A8 000:745 JLINK_IsHalted() -- CPU_ReadMem(2 bytes @ 0x20000000)  returns TRUE (0004ms, 0644ms total)
T45A8 000:749 JLINK_ReadReg(R15 (PC))  returns 0x20000000 (0000ms, 0640ms total)
T45A8 000:749 JLINK_ClrBPEx(BPHandle = 0x00000002)  returns 0x00 (0000ms, 0640ms total)
T45A8 000:749 JLINK_ReadReg(R0)  returns 0x00000001 (0000ms, 0640ms total)
T45A8 000:749 JLINK_WriteReg(R0, 0x08000000)  returns 0x00 (0000ms, 0640ms total)
T45A8 000:749 JLINK_WriteReg(R1, 0x00004000)  returns 0x00 (0000ms, 0640ms total)
T45A8 000:749 JLINK_WriteReg(R2, 0x000000FF)  returns 0x00 (0000ms, 0640ms total)
T45A8 000:749 JLINK_WriteReg(R3, 0x00000000)  returns 0x00 (0000ms, 0640ms total)
T45A8 000:749 JLINK_WriteReg(R4, 0x00000000)  returns 0x00 (0000ms, 0640ms total)
T45A8 000:749 JLINK_WriteReg(R5, 0x00000000)  returns 0x00 (0000ms, 0640ms total)
T45A8 000:749 JLINK_WriteReg(R6, 0x00000000)  returns 0x00 (0000ms, 0640ms total)
T45A8 000:749 JLINK_WriteReg(R7, 0x00000000)  returns 0x00 (0001ms, 0641ms total)
T45A8 000:750 JLINK_WriteReg(R8, 0x00000000)  returns 0x00 (0000ms, 0641ms total)
T45A8 000:750 JLINK_WriteReg(R9, 0x2000017C)  returns 0x00 (0000ms, 0641ms total)
T45A8 000:750 JLINK_WriteReg(R10, 0x00000000)  returns 0x00 (0000ms, 0641ms total)
T45A8 000:750 JLINK_WriteReg(R11, 0x00000000)  returns 0x00 (0000ms, 0641ms total)
T45A8 000:750 JLINK_WriteReg(R12, 0x00000000)  returns 0x00 (0000ms, 0641ms total)
T45A8 000:750 JLINK_WriteReg(R13 (SP), 0x20001000)  returns 0x00 (0000ms, 0641ms total)
T45A8 000:750 JLINK_WriteReg(R14, 0x20000001)  returns 0x00 (0000ms, 0641ms total)
T45A8 000:750 JLINK_WriteReg(R15 (PC), 0x200000BC)  returns 0x00 (0000ms, 0641ms total)
T45A8 000:750 JLINK_WriteReg(XPSR, 0x01000000)  returns 0x00 (0000ms, 0641ms total)
T45A8 000:750 JLINK_WriteReg(MSP, 0x20001000)  returns 0x00 (0000ms, 0641ms total)
T45A8 000:750 JLINK_WriteReg(PSP, 0x20001000)  returns 0x00 (0000ms, 0641ms total)
T45A8 000:750 JLINK_WriteReg(CFBP, 0x00000000)  returns 0x00 (0000ms, 0641ms total)
T45A8 000:750 JLINK_SetBPEx(Addr = 0x20000000, Type = 0xFFFFFFF2)  returns 0x00000003 (0000ms, 0641ms total)
T45A8 000:750 JLINK_Go() (0002ms, 0643ms total)
T45A8 000:752 JLINK_IsHalted()  returns FALSE (0000ms, 0643ms total)
T45A8 000:897 JLINK_IsHalted()  returns FALSE (0000ms, 0643ms total)
T45A8 001:004 JLINK_IsHalted()  returns FALSE (0000ms, 0643ms total)
T45A8 001:141 JLINK_IsHalted() -- CPU_ReadMem(2 bytes @ 0x20000000)  returns TRUE (0004ms, 0647ms total)
T45A8 001:145 JLINK_ReadReg(R15 (PC))  returns 0x20000000 (0000ms, 0643ms total)
T45A8 001:145 JLINK_ClrBPEx(BPHandle = 0x00000003)  returns 0x00 (0000ms, 0643ms total)
T45A8 001:145 JLINK_ReadReg(R0)  returns 0x00000000 (0000ms, 0643ms total)
T45A8 001:146 JLINK_WriteReg(R0, 0x00000001)  returns 0x00 (0000ms, 0643ms total)
T45A8 001:146 JLINK_WriteReg(R1, 0x00004000)  returns 0x00 (0000ms, 0643ms total)
T45A8 001:146 JLINK_WriteReg(R2, 0x000000FF)  returns 0x00 (0000ms, 0643ms total)
T45A8 001:146 JLINK_WriteReg(R3, 0x00000000)  returns 0x00 (0000ms, 0643ms total)
T45A8 001:146 JLINK_WriteReg(R4, 0x00000000)  returns 0x00 (0000ms, 0643ms total)
T45A8 001:146 JLINK_WriteReg(R5, 0x00000000)  returns 0x00 (0000ms, 0643ms total)
T45A8 001:146 JLINK_WriteReg(R6, 0x00000000)  returns 0x00 (0000ms, 0643ms total)
T45A8 001:146 JLINK_WriteReg(R7, 0x00000000)  returns 0x00 (0000ms, 0643ms total)
T45A8 001:146 JLINK_WriteReg(R8, 0x00000000)  returns 0x00 (0000ms, 0643ms total)
T45A8 001:146 JLINK_WriteReg(R9, 0x2000017C)  returns 0x00 (0000ms, 0643ms total)
T45A8 001:146 JLINK_WriteReg(R10, 0x00000000)  returns 0x00 (0000ms, 0643ms total)
T45A8 001:146 JLINK_WriteReg(R11, 0x00000000)  returns 0x00 (0000ms, 0643ms total)
T45A8 001:147 JLINK_WriteReg(R12, 0x00000000)  returns 0x00 (0000ms, 0644ms total)
T45A8 001:147 JLINK_WriteReg(R13 (SP), 0x20001000)  returns 0x00 (0000ms, 0644ms total)
T45A8 001:147 JLINK_WriteReg(R14, 0x20000001)  returns 0x00 (0000ms, 0644ms total)
T45A8 001:147 JLINK_WriteReg(R15 (PC), 0x20000082)  returns 0x00 (0000ms, 0644ms total)
T45A8 001:147 JLINK_WriteReg(XPSR, 0x01000000)  returns 0x00 (0000ms, 0644ms total)
T45A8 001:147 JLINK_WriteReg(MSP, 0x20001000)  returns 0x00 (0000ms, 0644ms total)
T45A8 001:147 JLINK_WriteReg(PSP, 0x20001000)  returns 0x00 (0000ms, 0644ms total)
T45A8 001:147 JLINK_WriteReg(CFBP, 0x00000000)  returns 0x00 (0000ms, 0644ms total)
T45A8 001:147 JLINK_SetBPEx(Addr = 0x20000000, Type = 0xFFFFFFF2)  returns 0x00000004 (0000ms, 0644ms total)
T45A8 001:147 JLINK_Go() (0002ms, 0646ms total)
T45A8 001:149 JLINK_IsHalted() -- CPU_ReadMem(2 bytes @ 0x20000000)  returns TRUE (0004ms, 0650ms total)
T45A8 001:153 JLINK_ReadReg(R15 (PC))  returns 0x20000000 (0000ms, 0646ms total)
T45A8 001:153 JLINK_ClrBPEx(BPHandle = 0x00000004)  returns 0x00 (0000ms, 0646ms total)
T45A8 001:153 JLINK_ReadReg(R0)  returns 0x00000000 (0000ms, 0646ms total)
T45A8 001:213 JLINK_WriteMem(0x20000000, 0x0180 Bytes, ...) - Data: 00 BE 0A E0 0D 78 2D 06 68 40 08 24 40 00 00 D3 ... -- CPU_WriteMem(384 bytes @ 0x20000000)  returns 0x180 (0005ms, 0651ms total)
T45A8 001:218 JLINK_WriteReg(R0, 0x08000000)  returns 0x00 (0000ms, 0651ms total)
T45A8 001:218 JLINK_WriteReg(R1, 0x0ABA9500)  returns 0x00 (0000ms, 0651ms total)
T45A8 001:218 JLINK_WriteReg(R2, 0x00000002)  returns 0x00 (0000ms, 0651ms total)
T45A8 001:218 JLINK_WriteReg(R3, 0x00000000)  returns 0x00 (0001ms, 0652ms total)
T45A8 001:219 JLINK_WriteReg(R4, 0x00000000)  returns 0x00 (0000ms, 0652ms total)
T45A8 001:219 JLINK_WriteReg(R5, 0x00000000)  returns 0x00 (0000ms, 0652ms total)
T45A8 001:219 JLINK_WriteReg(R6, 0x00000000)  returns 0x00 (0000ms, 0652ms total)
T45A8 001:219 JLINK_WriteReg(R7, 0x00000000)  returns 0x00 (0000ms, 0652ms total)
T45A8 001:219 JLINK_WriteReg(R8, 0x00000000)  returns 0x00 (0000ms, 0652ms total)
T45A8 001:219 JLINK_WriteReg(R9, 0x2000017C)  returns 0x00 (0000ms, 0652ms total)
T45A8 001:219 JLINK_WriteReg(R10, 0x00000000)  returns 0x00 (0000ms, 0652ms total)
T45A8 001:219 JLINK_WriteReg(R11, 0x00000000)  returns 0x00 (0000ms, 0652ms total)
T45A8 001:219 JLINK_WriteReg(R12, 0x00000000)  returns 0x00 (0000ms, 0652ms total)
T45A8 001:219 JLINK_WriteReg(R13 (SP), 0x20001000)  returns 0x00 (0000ms, 0652ms total)
T45A8 001:219 JLINK_WriteReg(R14, 0x20000001)  returns 0x00 (0000ms, 0652ms total)
T45A8 001:219 JLINK_WriteReg(R15 (PC), 0x20000054)  returns 0x00 (0000ms, 0652ms total)
T45A8 001:219 JLINK_WriteReg(XPSR, 0x01000000)  returns 0x00 (0000ms, 0652ms total)
T45A8 001:219 JLINK_WriteReg(MSP, 0x20001000)  returns 0x00 (0000ms, 0652ms total)
T45A8 001:219 JLINK_WriteReg(PSP, 0x20001000)  returns 0x00 (0000ms, 0652ms total)
T45A8 001:219 JLINK_WriteReg(CFBP, 0x00000000)  returns 0x00 (0001ms, 0653ms total)
T45A8 001:220 JLINK_SetBPEx(Addr = 0x20000000, Type = 0xFFFFFFF2) -- CPU_ReadMem(4 bytes @ 0x20000000) -- CPU_WriteMem(4 bytes @ 0x20000000) -- CPU_ReadMem(4 bytes @ 0x20000000) -- CPU_WriteMem(4 bytes @ 0x20000000) -- CPU_ReadMem(2 bytes @ 0x20000000)  returns 0x00000005 (0002ms, 0655ms total)
T45A8 001:222 JLINK_Go() -- CPU_WriteMem(2 bytes @ 0x20000000) (0003ms, 0658ms total)
T45A8 001:225 JLINK_IsHalted() -- CPU_ReadMem(2 bytes @ 0x20000000)  returns TRUE (0004ms, 0662ms total)
T45A8 001:229 JLINK_ReadReg(R15 (PC))  returns 0x20000000 (0000ms, 0658ms total)
T45A8 001:229 JLINK_ClrBPEx(BPHandle = 0x00000005)  returns 0x00 (0000ms, 0658ms total)
T45A8 001:229 JLINK_ReadReg(R0)  returns 0x00000000 (0000ms, 0658ms total)
T45A8 001:229 JLINK_WriteMem(0x20000180, 0x0400 Bytes, ...) - Data: B8 08 00 20 C1 01 00 08 1B 16 00 08 A1 13 00 08 ... -- CPU_WriteMem(1024 bytes @ 0x20000180)  returns 0x400 (0013ms, 0671ms total)
T45A8 001:242 JLINK_WriteReg(R0, 0x08000000)  returns 0x00 (0000ms, 0671ms total)
T45A8 001:242 JLINK_WriteReg(R1, 0x00000400)  returns 0x00 (0000ms, 0671ms total)
T45A8 001:242 JLINK_WriteReg(R2, 0x20000180)  returns 0x00 (0000ms, 0671ms total)
T45A8 001:242 JLINK_WriteReg(R3, 0x00000000)  returns 0x00 (0000ms, 0671ms total)
T45A8 001:242 JLINK_WriteReg(R4, 0x00000000)  returns 0x00 (0000ms, 0671ms total)
T45A8 001:242 JLINK_WriteReg(R5, 0x00000000)  returns 0x00 (0000ms, 0671ms total)
T45A8 001:242 JLINK_WriteReg(R6, 0x00000000)  returns 0x00 (0000ms, 0671ms total)
T45A8 001:242 JLINK_WriteReg(R7, 0x00000000)  returns 0x00 (0000ms, 0671ms total)
T45A8 001:242 JLINK_WriteReg(R8, 0x00000000)  returns 0x00 (0000ms, 0671ms total)
T45A8 001:242 JLINK_WriteReg(R9, 0x2000017C)  returns 0x00 (0000ms, 0671ms total)
T45A8 001:242 JLINK_WriteReg(R10, 0x00000000)  returns 0x00 (0000ms, 0671ms total)
T45A8 001:242 JLINK_WriteReg(R11, 0x00000000)  returns 0x00 (0000ms, 0671ms total)
T45A8 001:242 JLINK_WriteReg(R12, 0x00000000)  returns 0x00 (0000ms, 0671ms total)
T45A8 001:242 JLINK_WriteReg(R13 (SP), 0x20001000)  returns 0x00 (0001ms, 0672ms total)
T45A8 001:243 JLINK_WriteReg(R14, 0x20000001)  returns 0x00 (0000ms, 0672ms total)
T45A8 001:243 JLINK_WriteReg(R15 (PC), 0x20000108)  returns 0x00 (0000ms, 0672ms total)
T45A8 001:243 JLINK_WriteReg(XPSR, 0x01000000)  returns 0x00 (0000ms, 0672ms total)
T45A8 001:243 JLINK_WriteReg(MSP, 0x20001000)  returns 0x00 (0000ms, 0672ms total)
T45A8 001:243 JLINK_WriteReg(PSP, 0x20001000)  returns 0x00 (0000ms, 0672ms total)
T45A8 001:243 JLINK_WriteReg(CFBP, 0x00000000)  returns 0x00 (0000ms, 0672ms total)
T45A8 001:243 JLINK_SetBPEx(Addr = 0x20000000, Type = 0xFFFFFFF2)  returns 0x00000006 (0000ms, 0672ms total)
T45A8 001:243 JLINK_Go() (0002ms, 0674ms total)
T45A8 001:245 JLINK_IsHalted()  returns FALSE (0000ms, 0674ms total)
T45A8 001:354 JLINK_IsHalted() -- CPU_ReadMem(2 bytes @ 0x20000000)  returns TRUE (0004ms, 0678ms total)
T45A8 001:358 JLINK_ReadReg(R15 (PC))  returns 0x20000000 (0000ms, 0674ms total)
T45A8 001:358 JLINK_ClrBPEx(BPHandle = 0x00000006)  returns 0x00 (0000ms, 0674ms total)
T45A8 001:358 JLINK_ReadReg(R0)  returns 0x00000000 (0000ms, 0674ms total)
T45A8 001:359 JLINK_WriteMem(0x20000180, 0x0400 Bytes, ...) - Data: 42 61 70 47 0A B1 81 61 70 47 09 04 FB E7 00 00 ... -- CPU_WriteMem(1024 bytes @ 0x20000180)  returns 0x400 (0012ms, 0686ms total)
T45A8 001:371 JLINK_WriteReg(R0, 0x08000400)  returns 0x00 (0000ms, 0686ms total)
T45A8 001:371 JLINK_WriteReg(R1, 0x00000400)  returns 0x00 (0000ms, 0686ms total)
T45A8 001:371 JLINK_WriteReg(R2, 0x20000180)  returns 0x00 (0000ms, 0686ms total)
T45A8 001:371 JLINK_WriteReg(R3, 0x00000000)  returns 0x00 (0000ms, 0686ms total)
T45A8 001:372 JLINK_WriteReg(R4, 0x00000000)  returns 0x00 (0000ms, 0687ms total)
T45A8 001:372 JLINK_WriteReg(R5, 0x00000000)  returns 0x00 (0000ms, 0687ms total)
T45A8 001:372 JLINK_WriteReg(R6, 0x00000000)  returns 0x00 (0000ms, 0687ms total)
T45A8 001:372 JLINK_WriteReg(R7, 0x00000000)  returns 0x00 (0000ms, 0687ms total)
T45A8 001:372 JLINK_WriteReg(R8, 0x00000000)  returns 0x00 (0000ms, 0687ms total)
T45A8 001:372 JLINK_WriteReg(R9, 0x2000017C)  returns 0x00 (0000ms, 0687ms total)
T45A8 001:372 JLINK_WriteReg(R10, 0x00000000)  returns 0x00 (0000ms, 0687ms total)
T45A8 001:372 JLINK_WriteReg(R11, 0x00000000)  returns 0x00 (0000ms, 0687ms total)
T45A8 001:372 JLINK_WriteReg(R12, 0x00000000)  returns 0x00 (0000ms, 0687ms total)
T45A8 001:372 JLINK_WriteReg(R13 (SP), 0x20001000)  returns 0x00 (0000ms, 0687ms total)
T45A8 001:372 JLINK_WriteReg(R14, 0x20000001)  returns 0x00 (0000ms, 0687ms total)
T45A8 001:372 JLINK_WriteReg(R15 (PC), 0x20000108)  returns 0x00 (0001ms, 0688ms total)
T45A8 001:373 JLINK_WriteReg(XPSR, 0x01000000)  returns 0x00 (0000ms, 0688ms total)
T45A8 001:373 JLINK_WriteReg(MSP, 0x20001000)  returns 0x00 (0000ms, 0688ms total)
T45A8 001:373 JLINK_WriteReg(PSP, 0x20001000)  returns 0x00 (0000ms, 0688ms total)
T45A8 001:373 JLINK_WriteReg(CFBP, 0x00000000)  returns 0x00 (0000ms, 0688ms total)
T45A8 001:373 JLINK_SetBPEx(Addr = 0x20000000, Type = 0xFFFFFFF2)  returns 0x00000007 (0000ms, 0688ms total)
T45A8 001:373 JLINK_Go() (0002ms, 0690ms total)
T45A8 001:375 JLINK_IsHalted()  returns FALSE (0000ms, 0690ms total)
T45A8 001:494 JLINK_IsHalted() -- CPU_ReadMem(2 bytes @ 0x20000000)  returns TRUE (0004ms, 0694ms total)
T45A8 001:498 JLINK_ReadReg(R15 (PC))  returns 0x20000000 (0000ms, 0690ms total)
T45A8 001:498 JLINK_ClrBPEx(BPHandle = 0x00000007)  returns 0x00 (0000ms, 0690ms total)
T45A8 001:498 JLINK_ReadReg(R0)  returns 0x00000000 (0000ms, 0690ms total)
T45A8 001:499 JLINK_WriteMem(0x20000180, 0x0400 Bytes, ...) - Data: 08 38 02 40 00 24 F4 00 40 78 7D 01 2D E9 F8 4F ... -- CPU_WriteMem(1024 bytes @ 0x20000180)  returns 0x400 (0012ms, 0702ms total)
T45A8 001:511 JLINK_WriteReg(R0, 0x08000800)  returns 0x00 (0000ms, 0702ms total)
T45A8 001:511 JLINK_WriteReg(R1, 0x00000400)  returns 0x00 (0000ms, 0702ms total)
T45A8 001:512 JLINK_WriteReg(R2, 0x20000180)  returns 0x00 (0000ms, 0703ms total)
T45A8 001:512 JLINK_WriteReg(R3, 0x00000000)  returns 0x00 (0000ms, 0703ms total)
T45A8 001:512 JLINK_WriteReg(R4, 0x00000000)  returns 0x00 (0000ms, 0703ms total)
T45A8 001:512 JLINK_WriteReg(R5, 0x00000000)  returns 0x00 (0000ms, 0703ms total)
T45A8 001:512 JLINK_WriteReg(R6, 0x00000000)  returns 0x00 (0000ms, 0703ms total)
T45A8 001:512 JLINK_WriteReg(R7, 0x00000000)  returns 0x00 (0000ms, 0703ms total)
T45A8 001:512 JLINK_WriteReg(R8, 0x00000000)  returns 0x00 (0000ms, 0703ms total)
T45A8 001:512 JLINK_WriteReg(R9, 0x2000017C)  returns 0x00 (0000ms, 0703ms total)
T45A8 001:512 JLINK_WriteReg(R10, 0x00000000)  returns 0x00 (0000ms, 0703ms total)
T45A8 001:512 JLINK_WriteReg(R11, 0x00000000)  returns 0x00 (0000ms, 0703ms total)
T45A8 001:512 JLINK_WriteReg(R12, 0x00000000)  returns 0x00 (0000ms, 0703ms total)
T45A8 001:512 JLINK_WriteReg(R13 (SP), 0x20001000)  returns 0x00 (0000ms, 0703ms total)
T45A8 001:512 JLINK_WriteReg(R14, 0x20000001)  returns 0x00 (0001ms, 0704ms total)
T45A8 001:513 JLINK_WriteReg(R15 (PC), 0x20000108)  returns 0x00 (0000ms, 0704ms total)
T45A8 001:513 JLINK_WriteReg(XPSR, 0x01000000)  returns 0x00 (0000ms, 0704ms total)
T45A8 001:513 JLINK_WriteReg(MSP, 0x20001000)  returns 0x00 (0000ms, 0704ms total)
T45A8 001:513 JLINK_WriteReg(PSP, 0x20001000)  returns 0x00 (0000ms, 0704ms total)
T45A8 001:513 JLINK_WriteReg(CFBP, 0x00000000)  returns 0x00 (0000ms, 0704ms total)
T45A8 001:513 JLINK_SetBPEx(Addr = 0x20000000, Type = 0xFFFFFFF2)  returns 0x00000008 (0000ms, 0704ms total)
T45A8 001:513 JLINK_Go() (0002ms, 0706ms total)
T45A8 001:515 JLINK_IsHalted()  returns FALSE (0000ms, 0706ms total)
T45A8 001:613 JLINK_IsHalted() -- CPU_ReadMem(2 bytes @ 0x20000000)  returns TRUE (0003ms, 0709ms total)
T45A8 001:616 JLINK_ReadReg(R15 (PC))  returns 0x20000000 (0001ms, 0707ms total)
T45A8 001:617 JLINK_ClrBPEx(BPHandle = 0x00000008)  returns 0x00 (0000ms, 0707ms total)
T45A8 001:617 JLINK_ReadReg(R0)  returns 0x00000000 (0000ms, 0707ms total)
T45A8 001:617 JLINK_WriteMem(0x20000180, 0x0400 Bytes, ...) - Data: 40 F4 00 30 08 60 08 68 00 F4 00 30 09 E0 14 4B ... -- CPU_WriteMem(1024 bytes @ 0x20000180)  returns 0x400 (0013ms, 0720ms total)
T45A8 001:630 JLINK_WriteReg(R0, 0x08000C00)  returns 0x00 (0000ms, 0720ms total)
T45A8 001:630 JLINK_WriteReg(R1, 0x00000400)  returns 0x00 (0000ms, 0720ms total)
T45A8 001:630 JLINK_WriteReg(R2, 0x20000180)  returns 0x00 (0000ms, 0720ms total)
T45A8 001:630 JLINK_WriteReg(R3, 0x00000000)  returns 0x00 (0000ms, 0720ms total)
T45A8 001:630 JLINK_WriteReg(R4, 0x00000000)  returns 0x00 (0000ms, 0720ms total)
T45A8 001:630 JLINK_WriteReg(R5, 0x00000000)  returns 0x00 (0000ms, 0720ms total)
T45A8 001:630 JLINK_WriteReg(R6, 0x00000000)  returns 0x00 (0000ms, 0720ms total)
T45A8 001:630 JLINK_WriteReg(R7, 0x00000000)  returns 0x00 (0000ms, 0720ms total)
T45A8 001:630 JLINK_WriteReg(R8, 0x00000000)  returns 0x00 (0000ms, 0720ms total)
T45A8 001:630 JLINK_WriteReg(R9, 0x2000017C)  returns 0x00 (0000ms, 0720ms total)
T45A8 001:630 JLINK_WriteReg(R10, 0x00000000)  returns 0x00 (0001ms, 0721ms total)
T45A8 001:631 JLINK_WriteReg(R11, 0x00000000)  returns 0x00 (0000ms, 0721ms total)
T45A8 001:631 JLINK_WriteReg(R12, 0x00000000)  returns 0x00 (0000ms, 0721ms total)
T45A8 001:631 JLINK_WriteReg(R13 (SP), 0x20001000)  returns 0x00 (0000ms, 0721ms total)
T45A8 001:631 JLINK_WriteReg(R14, 0x20000001)  returns 0x00 (0000ms, 0721ms total)
T45A8 001:631 JLINK_WriteReg(R15 (PC), 0x20000108)  returns 0x00 (0000ms, 0721ms total)
T45A8 001:631 JLINK_WriteReg(XPSR, 0x01000000)  returns 0x00 (0000ms, 0721ms total)
T45A8 001:631 JLINK_WriteReg(MSP, 0x20001000)  returns 0x00 (0000ms, 0721ms total)
T45A8 001:631 JLINK_WriteReg(PSP, 0x20001000)  returns 0x00 (0000ms, 0721ms total)
T45A8 001:631 JLINK_WriteReg(CFBP, 0x00000000)  returns 0x00 (0000ms, 0721ms total)
T45A8 001:631 JLINK_SetBPEx(Addr = 0x20000000, Type = 0xFFFFFFF2)  returns 0x00000009 (0000ms, 0721ms total)
T45A8 001:631 JLINK_Go() (0002ms, 0723ms total)
T45A8 001:633 JLINK_IsHalted()  returns FALSE (0001ms, 0724ms total)
T45A8 001:643 JLINK_IsHalted() -- CPU_ReadMem(2 bytes @ 0x20000000)  returns TRUE (0004ms, 0727ms total)
T45A8 001:647 JLINK_ReadReg(R15 (PC))  returns 0x20000000 (0000ms, 0723ms total)
T45A8 001:647 JLINK_ClrBPEx(BPHandle = 0x00000009)  returns 0x00 (0000ms, 0723ms total)
T45A8 001:647 JLINK_ReadReg(R0)  returns 0x00000000 (0000ms, 0723ms total)
T45A8 001:648 JLINK_WriteMem(0x20000180, 0x0400 Bytes, ...) - Data: 01 68 18 48 91 42 07 D1 01 68 41 F0 02 01 01 60 ... -- CPU_WriteMem(1024 bytes @ 0x20000180)  returns 0x400 (0012ms, 0735ms total)
T45A8 001:660 JLINK_WriteReg(R0, 0x08001000)  returns 0x00 (0000ms, 0735ms total)
T45A8 001:660 JLINK_WriteReg(R1, 0x00000400)  returns 0x00 (0000ms, 0735ms total)
T45A8 001:660 JLINK_WriteReg(R2, 0x20000180)  returns 0x00 (0000ms, 0735ms total)
T45A8 001:660 JLINK_WriteReg(R3, 0x00000000)  returns 0x00 (0000ms, 0735ms total)
T45A8 001:660 JLINK_WriteReg(R4, 0x00000000)  returns 0x00 (0000ms, 0735ms total)
T45A8 001:661 JLINK_WriteReg(R5, 0x00000000)  returns 0x00 (0000ms, 0736ms total)
T45A8 001:661 JLINK_WriteReg(R6, 0x00000000)  returns 0x00 (0000ms, 0736ms total)
T45A8 001:661 JLINK_WriteReg(R7, 0x00000000)  returns 0x00 (0000ms, 0736ms total)
T45A8 001:661 JLINK_WriteReg(R8, 0x00000000)  returns 0x00 (0000ms, 0736ms total)
T45A8 001:661 JLINK_WriteReg(R9, 0x2000017C)  returns 0x00 (0000ms, 0736ms total)
T45A8 001:661 JLINK_WriteReg(R10, 0x00000000)  returns 0x00 (0000ms, 0736ms total)
T45A8 001:661 JLINK_WriteReg(R11, 0x00000000)  returns 0x00 (0000ms, 0736ms total)
T45A8 001:661 JLINK_WriteReg(R12, 0x00000000)  returns 0x00 (0000ms, 0736ms total)
T45A8 001:661 JLINK_WriteReg(R13 (SP), 0x20001000)  returns 0x00 (0000ms, 0736ms total)
T45A8 001:661 JLINK_WriteReg(R14, 0x20000001)  returns 0x00 (0000ms, 0736ms total)
T45A8 001:661 JLINK_WriteReg(R15 (PC), 0x20000108)  returns 0x00 (0000ms, 0736ms total)
T45A8 001:661 JLINK_WriteReg(XPSR, 0x01000000)  returns 0x00 (0000ms, 0736ms total)
T45A8 001:661 JLINK_WriteReg(MSP, 0x20001000)  returns 0x00 (0001ms, 0737ms total)
T45A8 001:662 JLINK_WriteReg(PSP, 0x20001000)  returns 0x00 (0000ms, 0737ms total)
T45A8 001:662 JLINK_WriteReg(CFBP, 0x00000000)  returns 0x00 (0000ms, 0737ms total)
T45A8 001:662 JLINK_SetBPEx(Addr = 0x20000000, Type = 0xFFFFFFF2)  returns 0x0000000A (0000ms, 0737ms total)
T45A8 001:662 JLINK_Go() (0002ms, 0739ms total)
T45A8 001:664 JLINK_IsHalted()  returns FALSE (0000ms, 0739ms total)
T45A8 001:671 JLINK_IsHalted() -- CPU_ReadMem(2 bytes @ 0x20000000)  returns TRUE (0003ms, 0742ms total)
T45A8 001:674 JLINK_ReadReg(R15 (PC))  returns 0x20000000 (0001ms, 0740ms total)
T45A8 001:675 JLINK_ClrBPEx(BPHandle = 0x0000000A)  returns 0x00 (0000ms, 0740ms total)
T45A8 001:675 JLINK_ReadReg(R0)  returns 0x00000000 (0000ms, 0740ms total)
T45A8 001:675 JLINK_WriteMem(0x20000180, 0x0400 Bytes, ...) - Data: 01 60 01 68 01 F0 08 01 05 91 01 68 41 F0 04 01 ... -- CPU_WriteMem(1024 bytes @ 0x20000180)  returns 0x400 (0013ms, 0753ms total)
T45A8 001:688 JLINK_WriteReg(R0, 0x08001400)  returns 0x00 (0000ms, 0753ms total)
T45A8 001:688 JLINK_WriteReg(R1, 0x00000400)  returns 0x00 (0000ms, 0753ms total)
T45A8 001:688 JLINK_WriteReg(R2, 0x20000180)  returns 0x00 (0000ms, 0753ms total)
T45A8 001:688 JLINK_WriteReg(R3, 0x00000000)  returns 0x00 (0000ms, 0753ms total)
T45A8 001:688 JLINK_WriteReg(R4, 0x00000000)  returns 0x00 (0000ms, 0753ms total)
T45A8 001:688 JLINK_WriteReg(R5, 0x00000000)  returns 0x00 (0000ms, 0753ms total)
T45A8 001:688 JLINK_WriteReg(R6, 0x00000000)  returns 0x00 (0000ms, 0753ms total)
T45A8 001:688 JLINK_WriteReg(R7, 0x00000000)  returns 0x00 (0000ms, 0753ms total)
T45A8 001:689 JLINK_WriteReg(R8, 0x00000000)  returns 0x00 (0000ms, 0753ms total)
T45A8 001:689 JLINK_WriteReg(R9, 0x2000017C)  returns 0x00 (0000ms, 0753ms total)
T45A8 001:689 JLINK_WriteReg(R10, 0x00000000)  returns 0x00 (0000ms, 0753ms total)
T45A8 001:689 JLINK_WriteReg(R11, 0x00000000)  returns 0x00 (0000ms, 0753ms total)
T45A8 001:689 JLINK_WriteReg(R12, 0x00000000)  returns 0x00 (0000ms, 0753ms total)
T45A8 001:689 JLINK_WriteReg(R13 (SP), 0x20001000)  returns 0x00 (0000ms, 0753ms total)
T45A8 001:689 JLINK_WriteReg(R14, 0x20000001)  returns 0x00 (0000ms, 0753ms total)
T45A8 001:689 JLINK_WriteReg(R15 (PC), 0x20000108)  returns 0x00 (0000ms, 0753ms total)
T45A8 001:689 JLINK_WriteReg(XPSR, 0x01000000)  returns 0x00 (0000ms, 0753ms total)
T45A8 001:689 JLINK_WriteReg(MSP, 0x20001000)  returns 0x00 (0000ms, 0753ms total)
T45A8 001:689 JLINK_WriteReg(PSP, 0x20001000)  returns 0x00 (0000ms, 0753ms total)
T45A8 001:689 JLINK_WriteReg(CFBP, 0x00000000)  returns 0x00 (0000ms, 0753ms total)
T45A8 001:689 JLINK_SetBPEx(Addr = 0x20000000, Type = 0xFFFFFFF2)  returns 0x0000000B (0000ms, 0753ms total)
T45A8 001:689 JLINK_Go() (0002ms, 0755ms total)
T45A8 001:691 JLINK_IsHalted()  returns FALSE (0001ms, 0756ms total)
T45A8 001:694 JLINK_IsHalted()  returns FALSE (0000ms, 0755ms total)
T45A8 001:696 JLINK_IsHalted() -- CPU_ReadMem(2 bytes @ 0x20000000)  returns TRUE (0003ms, 0758ms total)
T45A8 001:699 JLINK_ReadReg(R15 (PC))  returns 0x20000000 (0000ms, 0755ms total)
T45A8 001:699 JLINK_ClrBPEx(BPHandle = 0x0000000B)  returns 0x00 (0000ms, 0755ms total)
T45A8 001:700 JLINK_ReadReg(R0)  returns 0x00000000 (0000ms, 0755ms total)
T45A8 001:700 JLINK_WriteMem(0x20000180, 0x0400 Bytes, ...) - Data: 00 20 00 40 30 B5 02 6A 22 F0 01 02 02 62 02 6A ... -- CPU_WriteMem(1024 bytes @ 0x20000180)  returns 0x400 (0013ms, 0768ms total)
T45A8 001:713 JLINK_WriteReg(R0, 0x08001800)  returns 0x00 (0000ms, 0768ms total)
T45A8 001:713 JLINK_WriteReg(R1, 0x00000400)  returns 0x00 (0000ms, 0768ms total)
T45A8 001:713 JLINK_WriteReg(R2, 0x20000180)  returns 0x00 (0000ms, 0768ms total)
T45A8 001:713 JLINK_WriteReg(R3, 0x00000000)  returns 0x00 (0000ms, 0768ms total)
T45A8 001:713 JLINK_WriteReg(R4, 0x00000000)  returns 0x00 (0000ms, 0768ms total)
T45A8 001:713 JLINK_WriteReg(R5, 0x00000000)  returns 0x00 (0000ms, 0768ms total)
T45A8 001:713 JLINK_WriteReg(R6, 0x00000000)  returns 0x00 (0000ms, 0768ms total)
T45A8 001:713 JLINK_WriteReg(R7, 0x00000000)  returns 0x00 (0000ms, 0768ms total)
T45A8 001:713 JLINK_WriteReg(R8, 0x00000000)  returns 0x00 (0000ms, 0768ms total)
T45A8 001:713 JLINK_WriteReg(R9, 0x2000017C)  returns 0x00 (0001ms, 0769ms total)
T45A8 001:714 JLINK_WriteReg(R10, 0x00000000)  returns 0x00 (0000ms, 0769ms total)
T45A8 001:714 JLINK_WriteReg(R11, 0x00000000)  returns 0x00 (0000ms, 0769ms total)
T45A8 001:714 JLINK_WriteReg(R12, 0x00000000)  returns 0x00 (0000ms, 0769ms total)
T45A8 001:714 JLINK_WriteReg(R13 (SP), 0x20001000)  returns 0x00 (0000ms, 0769ms total)
T45A8 001:714 JLINK_WriteReg(R14, 0x20000001)  returns 0x00 (0000ms, 0769ms total)
T45A8 001:714 JLINK_WriteReg(R15 (PC), 0x20000108)  returns 0x00 (0000ms, 0769ms total)
T45A8 001:714 JLINK_WriteReg(XPSR, 0x01000000)  returns 0x00 (0000ms, 0769ms total)
T45A8 001:714 JLINK_WriteReg(MSP, 0x20001000)  returns 0x00 (0000ms, 0769ms total)
T45A8 001:714 JLINK_WriteReg(PSP, 0x20001000)  returns 0x00 (0000ms, 0769ms total)
T45A8 001:714 JLINK_WriteReg(CFBP, 0x00000000)  returns 0x00 (0000ms, 0769ms total)
T45A8 001:714 JLINK_SetBPEx(Addr = 0x20000000, Type = 0xFFFFFFF2)  returns 0x0000000C (0000ms, 0769ms total)
T45A8 001:714 JLINK_Go() (0002ms, 0771ms total)
T45A8 001:716 JLINK_IsHalted()  returns FALSE (0001ms, 0772ms total)
T45A8 001:719 JLINK_IsHalted()  returns FALSE (0000ms, 0771ms total)
T45A8 001:721 JLINK_IsHalted() -- CPU_ReadMem(2 bytes @ 0x20000000)  returns TRUE (0004ms, 0775ms total)
T45A8 001:725 JLINK_ReadReg(R15 (PC))  returns 0x20000000 (0000ms, 0771ms total)
T45A8 001:725 JLINK_ClrBPEx(BPHandle = 0x0000000C)  returns 0x00 (0000ms, 0771ms total)
T45A8 001:725 JLINK_ReadReg(R0)  returns 0x00000000 (0000ms, 0771ms total)
T45A8 001:725 JLINK_WriteMem(0x20000180, 0x0400 Bytes, ...) - Data: 21 68 30 44 88 60 BD E8 F0 81 FE F7 99 FD 00 EB ... -- CPU_WriteMem(1024 bytes @ 0x20000180)  returns 0x400 (0013ms, 0784ms total)
T45A8 001:738 JLINK_WriteReg(R0, 0x08001C00)  returns 0x00 (0000ms, 0784ms total)
T45A8 001:738 JLINK_WriteReg(R1, 0x00000400)  returns 0x00 (0000ms, 0784ms total)
T45A8 001:738 JLINK_WriteReg(R2, 0x20000180)  returns 0x00 (0000ms, 0784ms total)
T45A8 001:738 JLINK_WriteReg(R3, 0x00000000)  returns 0x00 (0000ms, 0784ms total)
T45A8 001:738 JLINK_WriteReg(R4, 0x00000000)  returns 0x00 (0000ms, 0784ms total)
T45A8 001:738 JLINK_WriteReg(R5, 0x00000000)  returns 0x00 (0000ms, 0784ms total)
T45A8 001:738 JLINK_WriteReg(R6, 0x00000000)  returns 0x00 (0001ms, 0785ms total)
T45A8 001:739 JLINK_WriteReg(R7, 0x00000000)  returns 0x00 (0000ms, 0785ms total)
T45A8 001:739 JLINK_WriteReg(R8, 0x00000000)  returns 0x00 (0000ms, 0785ms total)
T45A8 001:739 JLINK_WriteReg(R9, 0x2000017C)  returns 0x00 (0000ms, 0785ms total)
T45A8 001:739 JLINK_WriteReg(R10, 0x00000000)  returns 0x00 (0000ms, 0785ms total)
T45A8 001:739 JLINK_WriteReg(R11, 0x00000000)  returns 0x00 (0000ms, 0785ms total)
T45A8 001:739 JLINK_WriteReg(R12, 0x00000000)  returns 0x00 (0000ms, 0785ms total)
T45A8 001:739 JLINK_WriteReg(R13 (SP), 0x20001000)  returns 0x00 (0000ms, 0785ms total)
T45A8 001:739 JLINK_WriteReg(R14, 0x20000001)  returns 0x00 (0000ms, 0785ms total)
T45A8 001:739 JLINK_WriteReg(R15 (PC), 0x20000108)  returns 0x00 (0000ms, 0785ms total)
T45A8 001:739 JLINK_WriteReg(XPSR, 0x01000000)  returns 0x00 (0000ms, 0785ms total)
T45A8 001:739 JLINK_WriteReg(MSP, 0x20001000)  returns 0x00 (0000ms, 0785ms total)
T45A8 001:739 JLINK_WriteReg(PSP, 0x20001000)  returns 0x00 (0000ms, 0785ms total)
T45A8 001:739 JLINK_WriteReg(CFBP, 0x00000000)  returns 0x00 (0000ms, 0785ms total)
T45A8 001:739 JLINK_SetBPEx(Addr = 0x20000000, Type = 0xFFFFFFF2)  returns 0x0000000D (0000ms, 0785ms total)
T45A8 001:739 JLINK_Go() (0002ms, 0787ms total)
T45A8 001:741 JLINK_IsHalted()  returns FALSE (0001ms, 0788ms total)
T45A8 001:755 JLINK_IsHalted() -- CPU_ReadMem(2 bytes @ 0x20000000)  returns TRUE (0004ms, 0791ms total)
T45A8 001:759 JLINK_ReadReg(R15 (PC))  returns 0x20000000 (0000ms, 0787ms total)
T45A8 001:759 JLINK_ClrBPEx(BPHandle = 0x0000000D)  returns 0x00 (0000ms, 0787ms total)
T45A8 001:759 JLINK_ReadReg(R0)  returns 0x00000000 (0000ms, 0787ms total)
T45A8 001:760 JLINK_WriteMem(0x20000180, 0x0400 Bytes, ...) - Data: 00 E0 03 25 28 46 70 BD 70 B5 0C 46 09 88 00 26 ... -- CPU_WriteMem(1024 bytes @ 0x20000180)  returns 0x400 (0012ms, 0799ms total)
T45A8 001:772 JLINK_WriteReg(R0, 0x08002000)  returns 0x00 (0000ms, 0799ms total)
T45A8 001:772 JLINK_WriteReg(R1, 0x00000400)  returns 0x00 (0000ms, 0799ms total)
T45A8 001:772 JLINK_WriteReg(R2, 0x20000180)  returns 0x00 (0000ms, 0799ms total)
T45A8 001:773 JLINK_WriteReg(R3, 0x00000000)  returns 0x00 (0000ms, 0800ms total)
T45A8 001:773 JLINK_WriteReg(R4, 0x00000000)  returns 0x00 (0000ms, 0800ms total)
T45A8 001:773 JLINK_WriteReg(R5, 0x00000000)  returns 0x00 (0000ms, 0800ms total)
T45A8 001:773 JLINK_WriteReg(R6, 0x00000000)  returns 0x00 (0000ms, 0800ms total)
T45A8 001:773 JLINK_WriteReg(R7, 0x00000000)  returns 0x00 (0000ms, 0800ms total)
T45A8 001:773 JLINK_WriteReg(R8, 0x00000000)  returns 0x00 (0000ms, 0800ms total)
T45A8 001:773 JLINK_WriteReg(R9, 0x2000017C)  returns 0x00 (0000ms, 0800ms total)
T45A8 001:773 JLINK_WriteReg(R10, 0x00000000)  returns 0x00 (0000ms, 0800ms total)
T45A8 001:773 JLINK_WriteReg(R11, 0x00000000)  returns 0x00 (0000ms, 0800ms total)
T45A8 001:773 JLINK_WriteReg(R12, 0x00000000)  returns 0x00 (0000ms, 0800ms total)
T45A8 001:773 JLINK_WriteReg(R13 (SP), 0x20001000)  returns 0x00 (0000ms, 0800ms total)
T45A8 001:773 JLINK_WriteReg(R14, 0x20000001)  returns 0x00 (0000ms, 0800ms total)
T45A8 001:773 JLINK_WriteReg(R15 (PC), 0x20000108)  returns 0x00 (0000ms, 0800ms total)
T45A8 001:774 JLINK_WriteReg(XPSR, 0x01000000)  returns 0x00 (0000ms, 0800ms total)
T45A8 001:774 JLINK_WriteReg(MSP, 0x20001000)  returns 0x00 (0000ms, 0800ms total)
T45A8 001:774 JLINK_WriteReg(PSP, 0x20001000)  returns 0x00 (0000ms, 0800ms total)
T45A8 001:774 JLINK_WriteReg(CFBP, 0x00000000)  returns 0x00 (0000ms, 0800ms total)
T45A8 001:774 JLINK_SetBPEx(Addr = 0x20000000, Type = 0xFFFFFFF2)  returns 0x0000000E (0000ms, 0800ms total)
T45A8 001:774 JLINK_Go() (0002ms, 0802ms total)
T45A8 001:776 JLINK_IsHalted()  returns FALSE (0000ms, 0802ms total)
T45A8 001:788 JLINK_IsHalted() -- CPU_ReadMem(2 bytes @ 0x20000000)  returns TRUE (0003ms, 0805ms total)
T45A8 001:791 JLINK_ReadReg(R15 (PC))  returns 0x20000000 (0000ms, 0802ms total)
T45A8 001:791 JLINK_ClrBPEx(BPHandle = 0x0000000E)  returns 0x00 (0000ms, 0802ms total)
T45A8 001:791 JLINK_ReadReg(R0)  returns 0x00000000 (0000ms, 0802ms total)
T45A8 001:791 JLINK_WriteMem(0x20000180, 0x0400 Bytes, ...) - Data: 52 1C 92 B2 E2 80 00 E0 08 E0 88 54 E0 88 40 1C ... -- CPU_WriteMem(1024 bytes @ 0x20000180)  returns 0x400 (0013ms, 0815ms total)
T45A8 001:804 JLINK_WriteReg(R0, 0x08002400)  returns 0x00 (0000ms, 0815ms total)
T45A8 001:804 JLINK_WriteReg(R1, 0x00000400)  returns 0x00 (0000ms, 0815ms total)
T45A8 001:804 JLINK_WriteReg(R2, 0x20000180)  returns 0x00 (0000ms, 0815ms total)
T45A8 001:804 JLINK_WriteReg(R3, 0x00000000)  returns 0x00 (0000ms, 0815ms total)
T45A8 001:804 JLINK_WriteReg(R4, 0x00000000)  returns 0x00 (0000ms, 0815ms total)
T45A8 001:804 JLINK_WriteReg(R5, 0x00000000)  returns 0x00 (0000ms, 0815ms total)
T45A8 001:804 JLINK_WriteReg(R6, 0x00000000)  returns 0x00 (0000ms, 0815ms total)
T45A8 001:804 JLINK_WriteReg(R7, 0x00000000)  returns 0x00 (0000ms, 0815ms total)
T45A8 001:804 JLINK_WriteReg(R8, 0x00000000)  returns 0x00 (0000ms, 0815ms total)
T45A8 001:804 JLINK_WriteReg(R9, 0x2000017C)  returns 0x00 (0000ms, 0815ms total)
T45A8 001:804 JLINK_WriteReg(R10, 0x00000000)  returns 0x00 (0000ms, 0815ms total)
T45A8 001:804 JLINK_WriteReg(R11, 0x00000000)  returns 0x00 (0001ms, 0816ms total)
T45A8 001:805 JLINK_WriteReg(R12, 0x00000000)  returns 0x00 (0000ms, 0816ms total)
T45A8 001:805 JLINK_WriteReg(R13 (SP), 0x20001000)  returns 0x00 (0000ms, 0816ms total)
T45A8 001:805 JLINK_WriteReg(R14, 0x20000001)  returns 0x00 (0000ms, 0816ms total)
T45A8 001:805 JLINK_WriteReg(R15 (PC), 0x20000108)  returns 0x00 (0000ms, 0816ms total)
T45A8 001:805 JLINK_WriteReg(XPSR, 0x01000000)  returns 0x00 (0000ms, 0816ms total)
T45A8 001:805 JLINK_WriteReg(MSP, 0x20001000)  returns 0x00 (0000ms, 0816ms total)
T45A8 001:805 JLINK_WriteReg(PSP, 0x20001000)  returns 0x00 (0000ms, 0816ms total)
T45A8 001:805 JLINK_WriteReg(CFBP, 0x00000000)  returns 0x00 (0000ms, 0816ms total)
T45A8 001:805 JLINK_SetBPEx(Addr = 0x20000000, Type = 0xFFFFFFF2)  returns 0x0000000F (0000ms, 0816ms total)
T45A8 001:805 JLINK_Go() (0002ms, 0818ms total)
T45A8 001:807 JLINK_IsHalted()  returns FALSE (0001ms, 0819ms total)
T45A8 001:811 JLINK_IsHalted()  returns FALSE (0000ms, 0818ms total)
T45A8 001:813 JLINK_IsHalted() -- CPU_ReadMem(2 bytes @ 0x20000000)  returns TRUE (0003ms, 0821ms total)
T45A8 001:816 JLINK_ReadReg(R15 (PC))  returns 0x20000000 (0000ms, 0818ms total)
T45A8 001:816 JLINK_ClrBPEx(BPHandle = 0x0000000F)  returns 0x00 (0000ms, 0818ms total)
T45A8 001:816 JLINK_ReadReg(R0)  returns 0x00000000 (0001ms, 0819ms total)
T45A8 001:817 JLINK_WriteMem(0x20000180, 0x0400 Bytes, ...) - Data: 07 28 03 D0 04 20 70 47 02 20 70 47 06 20 70 47 ... -- CPU_WriteMem(1024 bytes @ 0x20000180)  returns 0x400 (0013ms, 0832ms total)
T45A8 001:830 JLINK_WriteReg(R0, 0x08002800)  returns 0x00 (0000ms, 0832ms total)
T45A8 001:830 JLINK_WriteReg(R1, 0x00000400)  returns 0x00 (0000ms, 0832ms total)
T45A8 001:830 JLINK_WriteReg(R2, 0x20000180)  returns 0x00 (0000ms, 0832ms total)
T45A8 001:830 JLINK_WriteReg(R3, 0x00000000)  returns 0x00 (0000ms, 0832ms total)
T45A8 001:830 JLINK_WriteReg(R4, 0x00000000)  returns 0x00 (0000ms, 0832ms total)
T45A8 001:830 JLINK_WriteReg(R5, 0x00000000)  returns 0x00 (0000ms, 0832ms total)
T45A8 001:830 JLINK_WriteReg(R6, 0x00000000)  returns 0x00 (0000ms, 0832ms total)
T45A8 001:830 JLINK_WriteReg(R7, 0x00000000)  returns 0x00 (0000ms, 0832ms total)
T45A8 001:830 JLINK_WriteReg(R8, 0x00000000)  returns 0x00 (0000ms, 0832ms total)
T45A8 001:830 JLINK_WriteReg(R9, 0x2000017C)  returns 0x00 (0000ms, 0832ms total)
T45A8 001:830 JLINK_WriteReg(R10, 0x00000000)  returns 0x00 (0000ms, 0832ms total)
T45A8 001:830 JLINK_WriteReg(R11, 0x00000000)  returns 0x00 (0000ms, 0832ms total)
T45A8 001:830 JLINK_WriteReg(R12, 0x00000000)  returns 0x00 (0000ms, 0832ms total)
T45A8 001:830 JLINK_WriteReg(R13 (SP), 0x20001000)  returns 0x00 (0000ms, 0832ms total)
T45A8 001:830 JLINK_WriteReg(R14, 0x20000001)  returns 0x00 (0001ms, 0833ms total)
T45A8 001:831 JLINK_WriteReg(R15 (PC), 0x20000108)  returns 0x00 (0000ms, 0833ms total)
T45A8 001:831 JLINK_WriteReg(XPSR, 0x01000000)  returns 0x00 (0000ms, 0833ms total)
T45A8 001:831 JLINK_WriteReg(MSP, 0x20001000)  returns 0x00 (0000ms, 0833ms total)
T45A8 001:831 JLINK_WriteReg(PSP, 0x20001000)  returns 0x00 (0000ms, 0833ms total)
T45A8 001:831 JLINK_WriteReg(CFBP, 0x00000000)  returns 0x00 (0000ms, 0833ms total)
T45A8 001:831 JLINK_SetBPEx(Addr = 0x20000000, Type = 0xFFFFFFF2)  returns 0x00000010 (0000ms, 0833ms total)
T45A8 001:831 JLINK_Go() (0002ms, 0835ms total)
T45A8 001:833 JLINK_IsHalted()  returns FALSE (0000ms, 0835ms total)
T45A8 001:845 JLINK_IsHalted() -- CPU_ReadMem(2 bytes @ 0x20000000)  returns TRUE (0003ms, 0838ms total)
T45A8 001:848 JLINK_ReadReg(R15 (PC))  returns 0x20000000 (0000ms, 0835ms total)
T45A8 001:849 JLINK_ClrBPEx(BPHandle = 0x00000010)  returns 0x00 (0000ms, 0836ms total)
T45A8 001:849 JLINK_ReadReg(R0)  returns 0x00000000 (0000ms, 0836ms total)
T45A8 001:849 JLINK_WriteMem(0x20000180, 0x0400 Bytes, ...) - Data: AF F3 00 80 20 78 10 B1 01 28 1C D1 04 E0 00 21 ... -- CPU_WriteMem(1024 bytes @ 0x20000180)  returns 0x400 (0013ms, 0849ms total)
T45A8 001:862 JLINK_WriteReg(R0, 0x08002C00)  returns 0x00 (0000ms, 0849ms total)
T45A8 001:862 JLINK_WriteReg(R1, 0x000003B8)  returns 0x00 (0000ms, 0849ms total)
T45A8 001:862 JLINK_WriteReg(R2, 0x20000180)  returns 0x00 (0000ms, 0849ms total)
T45A8 001:862 JLINK_WriteReg(R3, 0x00000000)  returns 0x00 (0000ms, 0849ms total)
T45A8 001:862 JLINK_WriteReg(R4, 0x00000000)  returns 0x00 (0000ms, 0849ms total)
T45A8 001:862 JLINK_WriteReg(R5, 0x00000000)  returns 0x00 (0000ms, 0849ms total)
T45A8 001:862 JLINK_WriteReg(R6, 0x00000000)  returns 0x00 (0001ms, 0850ms total)
T45A8 001:863 JLINK_WriteReg(R7, 0x00000000)  returns 0x00 (0000ms, 0850ms total)
T45A8 001:863 JLINK_WriteReg(R8, 0x00000000)  returns 0x00 (0000ms, 0850ms total)
T45A8 001:863 JLINK_WriteReg(R9, 0x2000017C)  returns 0x00 (0000ms, 0850ms total)
T45A8 001:863 JLINK_WriteReg(R10, 0x00000000)  returns 0x00 (0000ms, 0850ms total)
T45A8 001:863 JLINK_WriteReg(R11, 0x00000000)  returns 0x00 (0000ms, 0850ms total)
T45A8 001:863 JLINK_WriteReg(R12, 0x00000000)  returns 0x00 (0000ms, 0850ms total)
T45A8 001:863 JLINK_WriteReg(R13 (SP), 0x20001000)  returns 0x00 (0000ms, 0850ms total)
T45A8 001:863 JLINK_WriteReg(R14, 0x20000001)  returns 0x00 (0000ms, 0850ms total)
T45A8 001:863 JLINK_WriteReg(R15 (PC), 0x20000108)  returns 0x00 (0000ms, 0850ms total)
T45A8 001:863 JLINK_WriteReg(XPSR, 0x01000000)  returns 0x00 (0000ms, 0850ms total)
T45A8 001:863 JLINK_WriteReg(MSP, 0x20001000)  returns 0x00 (0000ms, 0850ms total)
T45A8 001:863 JLINK_WriteReg(PSP, 0x20001000)  returns 0x00 (0000ms, 0850ms total)
T45A8 001:863 JLINK_WriteReg(CFBP, 0x00000000)  returns 0x00 (0000ms, 0850ms total)
T45A8 001:863 JLINK_SetBPEx(Addr = 0x20000000, Type = 0xFFFFFFF2)  returns 0x00000011 (0000ms, 0850ms total)
